bias,freq,Zmag,phase,Zreal,Zimag,DC_Current,AC_Mag,AC_Phase,AC_Ch1,AC_Ch2
-0.2,10.0,20.014036349555212,-61.47484152163017,9.55759500959306,-17.58448260921882,0.219786,0.0004996493373622876,-61.47484152163017,"[ 0.00268555  0.00280762  0.00292969 ... -0.02246094 -0.02246094
 -0.02246094]",[0.02233887 0.02233887 0.02233887 ... 0.00488281 0.00500488 0.00524902]
-0.2,21.544346900318832,51.89999381465276,12.590086594356627,50.65203203676458,11.312869154532349,-0.26862,0.00019267825032335037,12.590086594356627,[0.03710938 0.03735352 0.03759766 ... 0.0480957  0.0480957  0.04797363],"[ 0.03259277  0.03234863  0.03210449 ... -0.00048828 -0.00097656
 -0.00134277]"
-0.2,46.41588833612777,59.03733022409411,176.9415137464429,-58.95323692594788,3.149954911072806,-0.3663,0.00016938435329040056,176.9415137464429,[0.02697754 0.02648926 0.02587891 ... 0.03771973 0.0378418  0.03796387],"[-0.03051758 -0.03100586 -0.03137207 ...  0.00524902  0.0045166
  0.00378418]"
-0.2,100.0,89.34098023151854,-149.29525593543215,-76.81626784900365,-45.61876524500323,-0.26862,0.00011193071728210239,-149.29525593543215,"[ 0.00292969  0.00244141  0.00183105 ... -0.01281738 -0.01245117
 -0.01208496]","[-0.01159668 -0.01159668 -0.01159668 ...  0.00915527  0.00964355
  0.01000977]"
-0.2,215.44346900318823,133.8160151245884,-127.2492057258463,-80.99655282655056,-106.51893885145438,-0.46398,7.472947083867036e-05,-127.2492057258463,[0.00292969 0.00292969 0.00305176 ... 0.00085449 0.00061035 0.00036621],"[ 0.00012207 -0.00012207 -0.00036621 ... -0.00280762 -0.00280762
 -0.00268555]"
-0.2,464.15888336127773,162.72623964022353,-134.07159782481438,-113.1853307485178,-116.91411365098776,-0.3663,6.145290410513578e-05,-134.07159782481438,"[ 0.00073242  0.00061035  0.00048828 ... -0.00061035 -0.00073242
 -0.00073242]","[-0.00048828 -0.00061035 -0.00061035 ... -0.00048828 -0.00036621
 -0.00024414]"
-0.2,1000.0,346.93745976046796,-135.3246481733769,-246.70792245109564,-243.9278622562632,-0.3663,2.8823638724121013e-05,-135.3246481733769,"[ 0.          0.          0.00012207 ...  0.         -0.00012207
 -0.00012207]",[0.00024414 0.00024414 0.00012207 ... 0.00012207 0.00012207 0.00012207]
-0.2,2154.4346900318824,634.1833605591567,-130.80390802687134,-414.42121836720065,-480.0454026205754,-0.659341,1.576831027415012e-05,-130.80390802687134,[0.00012207 0.00012207 0.00012207 ... 0.00012207 0.00012207 0.00012207],"[-0.00012207 -0.00024414 -0.00024414 ...  0.00036621  0.00036621
  0.00036621]"
-0.2,4641.588833612777,1132.1292287624942,-126.00960725249064,-665.6024334289108,-915.8001917623037,-0.3663,8.832913898823002e-06,-126.00960725249064,[0.00036621 0.00036621 0.00036621 ... 0.         0.         0.        ],[0.00048828 0.00048828 0.00048828 ... 0.         0.         0.        ]
-0.2,10000.0,12745.125311342425,-120.21727395738432,-6414.372934174931,-11013.357302073942,-0.659341,7.846137056887607e-07,-120.21727395738432,"[ 0.00024414  0.00024414  0.00024414 ... -0.00085449 -0.00085449
 -0.00085449]","[ 0.00012207  0.00012207  0.00012207 ... -0.00048828 -0.00048828
 -0.00048828]"
0.0,10.0,19.12303957639529,-154.03332117597992,-17.192546457984037,-8.372991635636634,-0.3663,0.0005229294202969489,-154.03332117597992,[0.02111816 0.02111816 0.02111816 ... 0.01013184 0.01013184 0.01025391],"[-0.00805664 -0.00817871 -0.00830078 ...  0.02185059  0.02172852
  0.02172852]"
0.0,21.544346900318832,50.93341185757984,-6.108245736483526,50.64424458397769,-5.419680246296979,-0.26862,0.0001963347758434489,-6.108245736483526,[0.04248047 0.04272461 0.04284668 ... 0.04553223 0.04541016 0.04528809],"[ 0.0255127   0.02502441  0.0246582  ... -0.01257324 -0.01293945
 -0.01342773]"
0.0,46.41588833612777,52.05909131013642,-173.47893655608638,-51.72227794570539,-5.9122713185643425,-0.561661,0.00019208940740870947,-173.47893655608638,[0.02380371 0.02319336 0.02258301 ... 0.03796387 0.03808594 0.03808594],"[-0.02929688 -0.02978516 -0.03027344 ...  0.00512695  0.0045166
  0.00378418]"
0.0,100.0,102.06370761596725,-139.2214878624187,-77.28672780533073,-66.66154901787364,-0.3663,9.797802013646975e-05,-139.2214878624187,"[ 0.00305176  0.00244141  0.00195312 ... -0.01159668 -0.01123047
 -0.01086426]","[-0.01379395 -0.01379395 -0.01379395 ...  0.00976562  0.01025391
  0.01062012]"
0.0,215.44346900318823,132.47567435326218,-138.9539903400862,-99.9108363842825,-86.99212072564217,-0.46398,7.548555649042259e-05,-138.9539903400862,"[-0.00158691 -0.00134277 -0.00097656 ...  0.0020752   0.0020752
  0.0020752 ]","[ 0.00354004  0.00366211  0.00378418 ... -0.00036621 -0.00073242
 -0.00097656]"
0.0,464.15888336127773,163.87126749335414,-135.12366332242124,-116.12431002150056,-115.62411916165608,-0.26862,6.102351042354361e-05,-135.12366332242124,"[-0.00036621 -0.00048828 -0.00061035 ... -0.00048828 -0.00036621
 -0.00024414]","[-0.00036621 -0.00024414 -0.00012207 ...  0.00048828  0.00048828
  0.00061035]"
0.0,1000.0,311.4993904985283,-134.25716183068695,-217.38919163855215,-223.10044742154037,-0.561661,3.210279154638424e-05,-134.25716183068695,"[-0.00012207  0.          0.         ... -0.00012207 -0.00012207
 -0.00012207]","[ 0.00024414  0.00024414  0.00012207 ... -0.00012207 -0.00012207
 -0.00012207]"
0.0,2154.4346900318824,859.8172974689076,-143.01998888399683,-686.8611081900744,-517.2113717646189,-0.3663,1.1630377790069543e-05,-143.01998888399683,[0. 0. 0. ... 0. 0. 0.],"[-0.00024414 -0.00024414 -0.00024414 ... -0.00012207 -0.00012207
 -0.00024414]"
0.0,4641.588833612777,1456.144318943687,-125.32812170710152,-842.0272886429146,-1188.0009775975084,-0.17094,6.867451165317307e-06,-125.32812170710152,"[-0.00024414 -0.00024414 -0.00024414 ...  0.00024414  0.00024414
  0.00024414]","[-0.00024414 -0.00024414 -0.00024414 ...  0.00036621  0.00036621
  0.00036621]"
0.0,10000.0,1369.3255779979813,-149.66782490370005,-1181.8814632455571,-691.526388069209,-0.46398,7.302865118915307e-06,-149.66782490370005,"[ 0.00085449  0.00085449  0.00085449 ... -0.00024414 -0.00024414
 -0.00024414]","[ 0.00048828  0.00048828  0.00048828 ... -0.00012207 -0.00012207
 -0.00012207]"
0.2,10.0,19.64749302512171,-70.00213210238303,6.719151341547877,-18.46285425988034,-0.3663,0.0005089707876324874,-70.00213210238303,"[ 0.00622559  0.00634766  0.00646973 ... -0.02160645 -0.02148438
 -0.02148438]",[0.02160645 0.02160645 0.02148438 ... 0.0090332  0.00915527 0.00927734]
0.2,21.544346900318832,49.64516988167536,107.78754371955375,-15.166018642352206,47.271923708690245,-0.46398,0.00020142946481669957,107.78754371955375,"[-0.02087402 -0.02038574 -0.02001953 ...  0.01745605  0.01794434
  0.01831055]",[0.0435791  0.04370117 0.04394531 ... 0.04333496 0.04321289 0.04309082]
0.2,46.41588833612777,69.9718989316264,152.8164472146799,-62.24333128332178,31.966143822056413,0.317466,0.00014291451500796884,152.8164472146799,[0.0045166  0.00378418 0.00305176 ... 0.03405762 0.03369141 0.03344727],"[-0.03918457 -0.03918457 -0.03918457 ... -0.01794434 -0.01855469
 -0.01916504]"
0.2,100.0,106.78402906852078,-110.42319650431843,-37.262445239701826,-100.07166951173001,0.122106,9.364696282047231e-05,-110.42319650431843,"[ 0.01293945  0.01269531  0.01257324 ... -0.0123291  -0.01257324
 -0.01293945]","[-0.00671387 -0.00720215 -0.0078125  ... -0.0078125  -0.00732422
 -0.00683594]"
0.2,215.44346900318823,123.28682509620585,-140.5050761866661,-95.13809239609752,-78.41163572795853,-1.050061,8.111166778929203e-05,-140.5050761866661,"[ 0.00134277  0.00109863  0.00073242 ... -0.00427246 -0.00427246
 -0.00427246]","[-0.00280762 -0.00280762 -0.00292969 ...  0.          0.00036621
  0.00061035]"
0.2,464.15888336127773,161.45172111559145,-134.41517057152987,-112.99238928065027,-115.32293013896548,-0.561661,6.193802042432545e-05,-134.41517057152987,"[-0.00012207  0.00012207  0.00024414 ...  0.00061035  0.00061035
  0.00048828]","[ 0.00073242  0.00061035  0.00061035 ... -0.00036621 -0.00048828
 -0.00073242]"
0.2,1000.0,322.48555343254804,-137.57073711069054,-238.03008767554505,-217.57437701592787,-0.659341,3.1009141009758836e-05,-137.57073711069054,"[ 0.00012207  0.          0.         ... -0.00024414 -0.00012207
 -0.00012207]","[ 0.00012207  0.00012207  0.00012207 ... -0.00012207 -0.00012207
 -0.00012207]"
0.2,2154.4346900318824,805.4614825989611,-137.67542665602917,-595.5118107341503,-542.3411133471719,0.122106,1.2415242958276872e-05,-137.67542665602917,"[ 0.          0.          0.         ... -0.00012207 -0.00012207
 -0.00012207]","[-0.00036621 -0.00036621 -0.00036621 ... -0.00012207 -0.00012207
  0.        ]"
0.2,4641.588833612777,1025.089496759282,-130.13614154817435,-660.7788458861938,-783.6962378342182,-0.46398,9.755245792307893e-06,-130.13614154817435,[0.00024414 0.00024414 0.00024414 ... 0.00024414 0.00024414 0.00024414],[0.00024414 0.00024414 0.00024414 ... 0.00024414 0.00024414 0.00024414]
0.2,10000.0,8232.822164067928,48.97938245267821,5403.452816615245,6211.445761155844,-0.17094,1.2146503107579443e-06,48.97938245267821,"[ 0.          0.          0.         ... -0.00097656 -0.00097656
 -0.00097656]","[-0.00012207 -0.00012207 -0.00012207 ... -0.00061035 -0.00061035
 -0.00061035]"
0.4000000000000001,10.0,22.588178209617645,36.645224591743435,18.12354830540255,13.481943170447858,-0.46398,0.00044270945213909185,36.645224591743435,"[-0.02355957 -0.02355957 -0.02355957 ... -0.00170898 -0.00183105
 -0.00195312]","[ 0.00268555  0.00268555  0.00280762 ... -0.02246094 -0.02246094
 -0.02246094]"
0.4000000000000001,21.544346900318832,34.14639501190935,172.10510964415639,-33.82274580357383,4.690219463540745,-0.26862,0.0002928566835975589,172.10510964415639,"[-0.04980469 -0.04980469 -0.04980469 ... -0.03356934 -0.03320312
 -0.03283691]","[-0.00073242 -0.00024414  0.00012207 ...  0.03381348  0.03417969
  0.03442383]"
0.4000000000000001,46.41588833612777,48.89136064642701,-152.86184212470434,-43.508872772257895,-22.30119135711066,-0.46398,0.00020453511352073206,-152.86184212470434,[0.03417969 0.03393555 0.03356934 ... 0.03198242 0.0324707  0.03295898],"[-0.01623535 -0.01696777 -0.0177002  ...  0.02246094  0.02185059
  0.0213623 ]"
0.4000000000000001,100.0,89.19022456448397,-158.65250137921697,-83.07086270198891,-32.46733632145369,-0.659341,0.00011211991054882997,-158.65250137921697,"[-0.00439453 -0.00488281 -0.00549316 ... -0.0090332  -0.00854492
 -0.00805664]","[-0.01367188 -0.01342773 -0.01318359 ...  0.00939941  0.00976562
  0.01000977]"
0.4000000000000001,215.44346900318823,132.42252754821496,-132.30487017267797,-89.13034306690273,-97.9362432760925,-0.854701,7.551585206194623e-05,-132.30487017267797,"[-0.00366211 -0.00366211 -0.00354004 ...  0.00183105  0.0020752
  0.00244141]","[-0.00061035 -0.00024414  0.         ...  0.00231934  0.00219727
  0.0020752 ]"
0.4000000000000001,464.15888336127773,164.2971799182564,-134.24615166692922,-114.63709993349306,-117.6940892650529,-0.46398,6.0865317377786704e-05,-134.24615166692922,"[ 0.00048828  0.00061035  0.00061035 ...  0.         -0.00012207
 -0.00024414]","[ 0.00061035  0.00061035  0.00048828 ... -0.00048828 -0.00061035
 -0.00061035]"
0.4000000000000001,1000.0,314.09922835380615,-136.0809241866607,-226.25202322532314,-217.87231866142224,-0.26862,3.18370728015156e-05,-136.0809241866607,"[ 0.00012207  0.00012207  0.         ... -0.00012207 -0.00012207
 -0.00012207]","[ 0.         -0.00012207 -0.00012207 ...  0.00012207  0.00024414
  0.00024414]"
0.4000000000000001,2154.4346900318824,806.9512392427287,-137.9974246463901,-599.6573671020601,-539.9827262011263,-0.26862,1.2392322501895344e-05,-137.9974246463901,"[-0.00012207 -0.00012207  0.         ... -0.00036621 -0.00036621
 -0.00036621]","[ 0.00024414  0.00024414  0.00024414 ... -0.00036621 -0.00036621
 -0.00036621]"
0.4000000000000001,4641.588833612777,6803.622453427947,-125.30133826228993,-3931.6548017575874,-5552.600202482205,-0.3663,1.469805249843278e-06,-125.30133826228993,"[-0.00012207 -0.00012207 -0.00012207 ... -0.00036621 -0.00036621
 -0.00036621]","[-0.00012207 -0.00012207 -0.00012207 ... -0.00048828 -0.00048828
 -0.00048828]"
0.4000000000000001,10000.0,29150.227764961808,-145.61965527615513,-24057.894641509432,-16460.664754716985,-0.3663,3.43050492799918e-07,-145.61965527615513,"[-0.00073242 -0.00073242 -0.00073242 ...  0.00024414  0.00024414
  0.00024414]","[-0.00048828 -0.00048828 -0.00048828 ...  0.00012207  0.00012207
  0.00012207]"
0.6000000000000001,10.0,21.122136748688487,-23.52560171926103,19.366502932678713,-8.43108682133231,0.317466,0.0004734369500103212,-23.52560171926103,"[-0.01135254 -0.01135254 -0.01123047 ... -0.0213623  -0.02148438
 -0.02160645]","[ 0.01940918  0.01953125  0.01953125 ... -0.00952148 -0.00939941
 -0.00927734]"
0.6000000000000001,21.544346900318832,44.210800909543096,125.10612519104154,-25.425309432303457,36.168336391585356,-1.050061,0.0002261890713190282,125.10612519104154,"[-0.03149414 -0.03112793 -0.03076172 ...  0.0012207   0.00158691
  0.00195312]",[0.03552246 0.03588867 0.03613281 ... 0.04980469 0.04980469 0.04980469]
0.6000000000000001,46.41588833612777,302.9064183235875,124.83418098485679,-173.02115775657506,248.62819073910052,-0.46398,3.3013496562219576e-05,124.83418098485679,"[-0.03198242 -0.0324707  -0.03283691 ...  0.00390625  0.00317383
  0.00244141]","[-0.02111816 -0.02050781 -0.01989746 ... -0.04052734 -0.04052734
 -0.04052734]"
0.6000000000000001,100.0,102.60260577672464,-140.58362550346794,-79.26586297246081,-65.14766058274876,-0.854701,9.746341161901071e-05,-140.58362550346794,"[ 0.00109863  0.00048828  0.         ... -0.01000977 -0.00964355
 -0.00927734]","[-0.01403809 -0.01403809 -0.01391602 ...  0.01123047  0.01159668
  0.01196289]"
0.6000000000000001,215.44346900318823,136.00268507671692,-137.22563398659875,-99.83056384434342,-92.36118703544857,-0.3663,7.352796008666418e-05,-137.22563398659875,"[ 0.00366211  0.00378418  0.00390625 ... -0.00012207 -0.00036621
 -0.00061035]","[ 0.00195312  0.00170898  0.00146484 ... -0.0032959  -0.0032959
 -0.0032959 ]"
0.6000000000000001,464.15888336127773,166.13969477497392,-136.03816233771195,-119.58773837703728,-115.33070280626394,-0.46398,6.0190311614237585e-05,-136.03816233771195,"[-0.00061035 -0.00048828 -0.00036621 ...  0.00073242  0.00073242
  0.00073242]",[0.00048828 0.00061035 0.00061035 ... 0.00048828 0.00036621 0.00012207]
0.6000000000000001,1000.0,333.8243396175322,-134.97984671925775,-235.96641137250774,-236.13246796038433,-0.46398,2.995587443221533e-05,-134.97984671925775,"[-0.00012207 -0.00012207  0.         ... -0.00012207 -0.00012207
 -0.00012207]","[ 0.          0.          0.         ... -0.00048828 -0.00048828
 -0.00036621]"
0.6000000000000001,2154.4346900318824,609.9681135625987,-132.55043575067666,-412.48419594013353,-449.3527430234924,-0.26862,1.639429959968512e-05,-132.55043575067666,"[ 0.          0.          0.00012207 ... -0.00012207  0.
  0.        ]",[0.00024414 0.00024414 0.00024414 ... 0.00012207 0.00012207 0.00012207]
0.6000000000000001,4641.588833612777,1512.1965205429394,-133.95007536038318,-1049.5117329904274,-1088.698047696239,-0.3663,6.612897109702116e-06,-133.95007536038318,"[-0.00024414 -0.00024414 -0.00024414 ...  0.00024414  0.00024414
  0.00024414]","[-0.00024414 -0.00024414 -0.00024414 ...  0.00036621  0.00036621
  0.00036621]"
0.6000000000000001,10000.0,39323.025077466875,-58.172553423326896,20737.503038626608,-33410.421562231764,0.219786,2.543039346616866e-07,-58.172553423326896,"[-0.00085449 -0.00085449 -0.00085449 ...  0.00024414  0.00024414
  0.00024414]","[-0.00061035 -0.00061035 -0.00061035 ...  0.00012207  0.00012207
  0.00012207]"
0.8,10.0,20.192629787205803,142.27100419464765,-15.970632682445478,12.35642300366718,-0.26862,0.0004952301956398008,142.27100419464765,[0.00244141 0.00231934 0.00219727 ... 0.02319336 0.02331543 0.02331543],"[-0.02246094 -0.02246094 -0.02246094 ... -0.00024414 -0.00036621
 -0.00048828]"
0.8,21.544346900318832,31.62597617577092,-93.43123154960921,-1.8928304444543214,-31.5692819363852,-0.561661,0.00031619577351294957,-93.43123154960921,"[ 0.02233887  0.02197266  0.02160645 ... -0.00915527 -0.00952148
 -0.01000977]","[-0.04162598 -0.04187012 -0.04211426 ... -0.04907227 -0.0489502
 -0.04882812]"
0.8,46.41588833612777,53.03472122132257,-136.72600675392798,-38.61373079975039,-36.35466199468523,-0.3663,0.0001885557191536534,-136.72600675392798,[0.03625488 0.03662109 0.0369873  ... 0.00256348 0.00341797 0.00415039],[0.01696777 0.01635742 0.015625   ... 0.03759766 0.03747559 0.03747559]
0.8,100.0,143.81769494170695,-124.42567998325612,-81.30543008458086,-118.62949218936754,-0.3663,6.953247306635849e-05,-124.42567998325612,[0.00842285 0.00891113 0.00939941 ... 0.00622559 0.0057373  0.00512695],"[ 0.01318359  0.01293945  0.01257324 ... -0.01379395 -0.01391602
 -0.01416016]"
0.8,215.44346900318823,131.98713950170804,-140.5385413996581,-101.90097228189114,-83.88561761022324,-0.3663,7.576495738715961e-05,-140.5385413996581,"[-0.00195312 -0.00170898 -0.00146484 ...  0.00231934  0.00244141
  0.00256348]",[0.00341797 0.00354004 0.00378418 ... 0.00085449 0.00061035 0.00036621]
0.8,464.15888336127773,166.25276614272542,-135.24590312327072,-118.06191372861548,-117.05283754290069,-0.26862,6.0149375147329315e-05,-135.24590312327072,[0.         0.00012207 0.00024414 ... 0.00073242 0.00061035 0.00048828],"[ 0.00061035  0.00048828  0.00036621 ... -0.00036621 -0.00048828
 -0.00061035]"
0.8,1000.0,324.6209445558784,-135.48014836240716,-231.45718688931007,-227.61003554684856,-0.46398,3.080515957983314e-05,-135.48014836240716,"[-0.00012207  0.          0.         ...  0.          0.
  0.        ]","[ 0.          0.         -0.00012207 ... -0.00024414 -0.00024414
 -0.00012207]"
0.8,2154.4346900318824,714.7925201101016,-137.48205519187374,-526.8490552742812,-483.0718577623285,-0.3663,1.3990073648867607e-05,-137.48205519187374,"[ 0.          0.          0.         ... -0.00012207 -0.00012207
 -0.00012207]","[ 0.00036621  0.00036621  0.00024414 ... -0.00012207  0.
  0.        ]"
0.8,4641.588833612777,1348.0262487273326,-121.82238868654561,-710.7978707629361,-1145.3999974579888,-0.17094,7.418253175293114e-06,-121.82238868654561,[0.00036621 0.00036621 0.00036621 ... 0.         0.         0.        ],"[ 0.00036621  0.00036621  0.00036621 ... -0.00012207 -0.00012207
 -0.00012207]"
0.8,10000.0,1622.596047722099,-147.28974464786864,-1365.275146158062,-876.836193006686,0.122106,6.162963366044568e-06,-147.28974464786864,"[-0.00036621 -0.00036621 -0.00036621 ...  0.00073242  0.00073242
  0.00073242]","[-0.00024414 -0.00024414 -0.00024414 ...  0.00048828  0.00036621
  0.00036621]"
